!Keysight Technologies N9913A: A.08.18
!Date: Friday, 21 April 2023 12:03:47
!TimeZone: (GMT-06:00) Guadalajara, Mexico City, Monterrey!Model: N9913A
!Serial: MY53104603
!GPS Latitude: 
!GPS Longitude: 
!GPS TimeStamp: 0001-01-01 00:00:00Z
!GPS Seconds Since Last Read: 0
!CHECKSUM:0762961336
!Correction: S11(ON U*)
!S1P File: Measurement: S11:
# Hz S DB R 50
300000000	-5.33255355729474	77.3177430162513
300200000	-5.29825640835795	77.0915324623715
300400000	-5.27493783635717	76.9775754875063
300600000	-5.28983436478435	76.606730873495
300800000	-5.25525868633397	76.2687240330502
301000000	-5.25853835448117	75.8641984308332
301200000	-5.26054001964092	75.7297100852104
301400000	-5.26489385613629	75.2704245747358
301600000	-5.24019698226569	75.1172417159775
301800000	-5.24330190786199	75.0806016816686
302000000	-5.20068257254646	74.6179271553793
302200000	-5.18467420182613	74.1870966392193
302400000	-5.14548742583808	73.7603221229595
302600000	-5.11971164022145	73.5343659000589
302800000	-5.08780309180447	72.9133725899198
303000000	-5.04489894728167	72.5874486614101
303200000	-4.99785383747025	72.4321555028057
303400000	-4.99042250230841	72.0165058979127
303600000	-4.98302792980193	71.6627053154291
303800000	-4.9566524852498	71.2027481937584
304000000	-4.94552617817062	71.0751587535113
304200000	-4.93170560199364	70.7167325313778
304400000	-4.91068876701636	70.398969236924
304600000	-4.86304086257942	70.2647396594922
304800000	-4.84947919750371	69.9291967956334
305000000	-4.80811905717147	69.4255878149909
305200000	-4.7813542336154	69.0190875853179
305400000	-4.74019400855429	68.5842310620283
305600000	-4.72195586209033	68.0717515217237
305800000	-4.67882726365857	67.6078728868726
306000000	-4.63405275525437	67.3843612356954
306200000	-4.60368609157551	66.831191979723
306400000	-4.58701928817094	66.229833096119
306600000	-4.6049231602083	65.763891136811
306800000	-4.56078453277507	65.5864883886664
307000000	-4.55615286059698	65.1247352002863
307200000	-4.56192293303098	64.6966183977825
307400000	-4.5456140638834	64.109238535961
307600000	-4.55415546907739	63.581829888043
307800000	-4.53334575281485	63.3782243704911
308000000	-4.53748506901212	63.05379551933
308200000	-4.51303340347149	62.6948508803625
308400000	-4.48453095595624	62.0814858797694
308600000	-4.46867994261163	61.7079243529442
308800000	-4.46353976164123	61.3443481017174
309000000	-4.4640376582845	60.9585302229718
309200000	-4.40975103994984	60.6678113000875
309400000	-4.38694181538318	60.2965952718531
309600000	-4.39069369738208	59.6457827356138
309800000	-4.35284330478068	59.4201700420348
310000000	-4.37820576039082	58.8894192534929
310200000	-4.39632868190971	58.4517109997871
310400000	-4.34621493081606	58.0181375032378
310600000	-4.33701738690189	57.6733181700982
310800000	-4.3276353650105	57.4306448961799
311000000	-4.35091994009662	57.0870643252683
311200000	-4.33590201147943	56.6919878746344
311400000	-4.31608989785187	56.2184646638261
311600000	-4.33096112606405	55.8308505401947
311800000	-4.2945420633021	55.5373824993268
312000000	-4.23451875569625	55.0651058715455
312200000	-4.23808621989224	54.4438564526287
312400000	-4.24090856217987	53.9056990612114
312600000	-4.23412703991813	53.7181683451682
312800000	-4.25886681983263	53.1060741479166
313000000	-4.21034782122926	52.7281148053703
313200000	-4.2310284801275	52.2066585167822
313400000	-4.22180371085054	51.9952478619738
313600000	-4.20694174104871	51.3478118094127
313800000	-4.20134038794797	50.9128005019368
314000000	-4.18571106541589	50.6096816367743
314200000	-4.18948734463837	50.1037296705753
314400000	-4.14134826229296	49.5987653429691
314600000	-4.14955068217522	49.1553778693318
314800000	-4.17019463704223	48.7727540812613
315000000	-4.19630677118378	48.4575076819232
315200000	-4.22596552723104	48.0102010957611
315400000	-4.22367867738115	47.7011367076844
315600000	-4.25043351895417	47.3717184006526
315800000	-4.21712971204855	46.8660492420547
316000000	-4.22641234008069	46.5095307772058
316200000	-4.21262594184443	46.4106437679624
316400000	-4.19823051991871	45.8969521631738
316600000	-4.19440330161191	45.7231111641648
316800000	-4.20042720917032	45.5314813799759
317000000	-4.18730234935806	44.9458863139595
317200000	-4.19386095975436	44.6251332082461
317400000	-4.15290815664942	44.4907472215773
317600000	-4.13949484908851	43.9207309371585
317800000	-4.1172566269469	43.4986100064112
318000000	-4.14094026883387	43.1492844825799
318200000	-4.09659395395004	42.8611220887174
318400000	-4.10823620351008	42.4656977423404
318600000	-4.09722292292709	41.9212010567357
318800000	-4.09364340084856	41.4418671664529
319000000	-4.08188393713555	41.2329277392768
319200000	-4.08465030573245	40.7854242347773
319400000	-4.08799168653066	40.5087458919254
319600000	-4.06265827811016	40.07703430842
319800000	-4.08745611360545	39.710311278355
320000000	-4.0533642775182	39.3473898322466
320200000	-4.03899783473148	38.8166771892948
320400000	-4.06246372877007	38.5272238759949
320600000	-4.02156786151047	38.174596292381
320800000	-3.99399893257227	37.5557070487718
321000000	-4.00804278572342	37.443831575555
321200000	-4.01028658044776	36.8548525729874
321400000	-4.02657135838561	36.4201310887399
321600000	-4.03455396137747	36.1420189921513
321800000	-4.0396462443505	35.7504209101075
322000000	-4.00460367665988	35.5690404736638
322200000	-4.00542582350875	35.0514090070402
322400000	-4.01514129351706	34.6868971992734
322600000	-4.03178349389581	34.3385296421775
322800000	-4.01458468118917	34.0700682451432
323000000	-4.00078024437752	33.7154641071701
323200000	-3.99681848935422	33.2504570750889
323400000	-3.98682286960134	32.810394442649
323600000	-3.97382790976211	32.5929910125485
323800000	-3.98833768795724	32.1168292261897
324000000	-3.98093451318207	31.6443727849713
324200000	-3.96519959881482	31.5542640149585
324400000	-3.97371993037277	31.2356799889327
324600000	-3.96881425561826	30.7916972773516
324800000	-3.98769287281958	30.4432609569934
325000000	-3.99034887085423	30.1574091038595
325200000	-3.97210241811818	29.6666796045059
325400000	-3.96905238381232	29.5863470444253
325600000	-3.96398658570316	29.3833604332265
325800000	-3.94850295017948	28.8381548564912
326000000	-3.96950596441352	28.5481602987115
326200000	-3.95242207727562	27.934432245895
326400000	-3.92892627402265	27.6350850705803
326600000	-3.93336665621411	27.4118355878008
326800000	-3.91647630387077	27.0593145364713
327000000	-3.9152254654762	26.7540917082342
327200000	-3.89465968530338	26.4719220307914
327400000	-3.88305850903964	25.9822346369273
327600000	-3.86909544742289	25.7203515807609
327800000	-3.87351899552398	25.4248747185819
328000000	-3.87569378507815	25.1837710332514
328200000	-3.88329369163431	24.781085934114
328400000	-3.88530595215272	24.4287404528671
328600000	-3.89029273549132	24.0654418701426
328800000	-3.88984216072265	23.7210846077055
329000000	-3.91759514728647	23.3737042724617
329200000	-3.9201580793064	23.0927830889766
329400000	-3.90391252682162	22.6596282352155
329600000	-3.90901124726229	22.4517761359715
329800000	-3.89884981460072	22.1005863519077
330000000	-3.86897951558855	21.7093843613096
330200000	-3.83921746115679	21.4681878537125
330400000	-3.83062067419784	21.2387083538209
330600000	-3.86167122422232	20.8799882495149
330800000	-3.83240906780171	20.7526778968729
331000000	-3.83224065610509	20.3860725893693
331200000	-3.82569972408695	20.0477808658773
331400000	-3.81503543940704	19.7447328364557
331600000	-3.82906828614909	19.5296720836695
331800000	-3.85483701023521	19.2897778251413
332000000	-3.86141182056302	18.7184648592621
332200000	-3.84352493601197	18.5410265629418
332400000	-3.86485563294232	18.1947763690353
332600000	-3.88126734529238	17.9373307235296
332800000	-3.89684956005119	17.5393512009826
333000000	-3.90970522506682	17.1553237606388
333200000	-3.9147744230501	16.951559183118
333400000	-3.89608270420973	16.657525719219
333600000	-3.88456932731187	16.3314185716726
333800000	-3.86913927513973	16.37345305211
334000000	-3.83401910433811	16.1552034456058
334200000	-3.81358533621197	15.7626684745179
334400000	-3.81784593294638	15.5473385489092
334600000	-3.80590914247925	15.4146147285198
334800000	-3.78617208028836	15.25003326617
335000000	-3.79542870635686	14.8814634715026
335200000	-3.79049912160703	14.5482906733754
335400000	-3.7767737286144	14.4793313275016
335600000	-3.77133816355576	14.0434928914618
335800000	-3.77238604545002	13.7253285121433
336000000	-3.78946598321851	13.4205550834712
336200000	-3.7993896361675	13.0653982307667
336400000	-3.80662412878744	12.6349595883002
336600000	-3.80297378485166	12.3227524322932
336800000	-3.82557087670589	11.9516176160281
337000000	-3.82272739263407	11.636533155716
337200000	-3.84525127335642	11.4089673273117
337400000	-3.81276297914469	11.1170557754903
337600000	-3.77960359777515	10.9418636178381
337800000	-3.76572427531906	10.5729550574017
338000000	-3.7643410123753	10.4941447648117
338200000	-3.74999515079927	10.411360321189
338400000	-3.73076187731536	10.0667820282217
338600000	-3.71243062353325	9.96754473071428
338800000	-3.72883469904807	9.79834870260267
339000000	-3.7027140607709	9.41810954284276
339200000	-3.70102034324064	9.11898429918219
339400000	-3.70247005552394	8.79745626788782
339600000	-3.70712183232851	8.38389266128373
339800000	-3.69696264651911	7.91781539644396
340000000	-3.69673755270883	7.57007157223834
340200000	-3.70500681245435	7.24021214313378
340400000	-3.71198965923601	6.7192750511966
340600000	-3.72902453240991	6.14198553404011
340800000	-3.7404183771909	5.78989175298459
341000000	-3.73615215975618	5.36213922145919
341200000	-3.75674841657083	5.03711257308297
341400000	-3.7501219576879	4.83697673751867
341600000	-3.7346749089553	4.48595201673724
341800000	-3.7373264597992	4.29044275567633
342000000	-3.72840120215151	3.95568669867196
342200000	-3.76632498813703	3.79583372109691
342400000	-3.74166976632989	3.55580741761927
342600000	-3.749690812717	3.27943333291447
342800000	-3.75344949502814	3.07053994967606
343000000	-3.7538591652329	2.60220016315724
343200000	-3.75200375995168	2.35196339507865
343400000	-3.77619183336656	1.92695615662774
343600000	-3.77742289517214	1.50097995059412
343800000	-3.82293707009033	1.1146040312054
344000000	-3.84670895851231	0.703740384581974
344200000	-3.86060923630035	0.320420266286291
344400000	-3.88521979809535	-0.128470759673089
344600000	-3.90687881409981	-0.644977083097321
344800000	-3.92782670691876	-1.22090226546543
345000000	-3.96000364480397	-1.63711747419795
345200000	-3.98693265129093	-1.87422854798667
345400000	-4.00483101063598	-2.25405413948465
345600000	-4.01860518863814	-2.59068089549764
345800000	-4.03567285990844	-2.66897379787022
346000000	-4.06329004992129	-2.83724514134714
346200000	-4.08752154510766	-2.88694271175908
346400000	-4.10988160303243	-3.19614531702169
346600000	-4.12343567384009	-3.41927554447727
346800000	-4.14582173404511	-3.60424949598039
347000000	-4.16563214940998	-3.93149503233944
347200000	-4.18660578395731	-4.16486156233738
347400000	-4.20779929250003	-4.31048453344798
347600000	-4.23487017796795	-4.5391571560028
347800000	-4.2809286194725	-5.00960553427777
348000000	-4.28649769587313	-5.5146596803689
348200000	-4.32023093027297	-5.86070967597468
348400000	-4.34239929871989	-6.36822826486523
348600000	-4.3706851335647	-6.61995399812374
348800000	-4.37824542845104	-7.05877093142481
349000000	-4.40736692300983	-7.5552109043995
349200000	-4.46399863041616	-7.93398412453279
349400000	-4.48754526102921	-8.41294980593891
349600000	-4.50058598029369	-8.52749466553222
349800000	-4.55276088994895	-8.88254552184015
350000000	-4.57003605587869	-8.985029597059
350200000	-4.6176085884821	-9.08794730007742
350400000	-4.67470777427755	-9.40333764631139
350600000	-4.6816397373161	-9.57992171970854
350800000	-4.72329040042673	-9.7356623877679
351000000	-4.76337483254334	-9.94870695824076
351200000	-4.76962670302638	-10.2717550500898
351400000	-4.82946851304719	-10.3198853888501
351600000	-4.84978742989762	-10.7488880352917
351800000	-4.88922113219103	-11.0640413964808
352000000	-4.90551983156357	-11.3812482860769
352200000	-4.92909289335109	-11.6607858028618
352400000	-4.95606735493363	-12.0958680148918
352600000	-4.97090942305358	-12.4729574543151
352800000	-5.01160115749715	-13.1622777659937
353000000	-5.01348266024545	-13.4906386000501
353200000	-5.05577618918531	-13.9987086137072
353400000	-5.08422923410434	-14.5276307627767
353600000	-5.12506905563619	-15.0914886981405
353800000	-5.17592748624154	-15.3388006309739
354000000	-5.24658801694278	-15.6596028486791
354200000	-5.28316831323486	-15.9722734192063
354400000	-5.32371149287217	-16.3143056703237
354600000	-5.38925417810005	-16.5877601297132
354800000	-5.46936915866169	-16.8632540582942
355000000	-5.53772099572826	-17.1244747927314
355200000	-5.55160435638201	-17.5205997454436
355400000	-5.62993604607792	-17.8942425049041
355600000	-5.70247743607087	-18.0074238875232
355800000	-5.76519868550992	-18.3953201523344
356000000	-5.81976150025636	-18.8009148537763
356200000	-5.861069682619	-19.1223335093541
356400000	-5.92237283085574	-19.5773883025279
356600000	-5.97370503694509	-19.9656583355101
356800000	-6.04049891637854	-20.3382114226422
357000000	-6.08344289970298	-20.7019527929953
357200000	-6.10572766600591	-21.3029087481336
357400000	-6.16805244871771	-21.6456773811287
357600000	-6.21333015326263	-22.2015379760286
357800000	-6.23455909410399	-22.7097636827558
358000000	-6.27985448983755	-22.9059419136745
358200000	-6.37260346565335	-23.7147144170062
358400000	-6.45042821853117	-23.9740152155729
358600000	-6.55144554939152	-24.3725558150158
358800000	-6.63547084513114	-24.7065560750547
359000000	-6.72526914283759	-25.1281081936539
359200000	-6.83241218589895	-25.5259229578278
359400000	-6.90585666733161	-25.9595287707006
359600000	-7.00759134277384	-26.3359232428979
359800000	-7.07652840772843	-26.6701024671841
360000000	-7.1766936555745	-27.1883287195787
360200000	-7.24815378984404	-27.4977443960926
360400000	-7.37200181098048	-27.904692367105
360600000	-7.43646898546991	-28.3073155264692
360800000	-7.56420531340339	-29.1332735744817
361000000	-7.65168181483602	-29.2874937254358
361200000	-7.76407367453759	-29.6959903546441
361400000	-7.84250040306718	-30.185478557573
361600000	-7.90517058249352	-30.6895504516883
361800000	-7.96601214478171	-31.4926978025738
362000000	-8.08690237574638	-31.8345167859742
362200000	-8.17770508214355	-32.146703014198
362400000	-8.25053675347696	-32.8963534124268
362600000	-8.39810752357476	-33.5881951253458
362800000	-8.53316536722541	-34.1441498403142
363000000	-8.63703820323417	-34.9241907985298
363200000	-8.78303573192069	-35.4163574610298
363400000	-8.94790983897452	-35.9867234669108
363600000	-9.120917350232	-36.2696746321109
363800000	-9.27994007136076	-36.8314255005428
364000000	-9.45935380066171	-37.4809158919991
364200000	-9.6521124669244	-38.2780782943858
364400000	-9.80917778812709	-38.6489360750998
364600000	-10.0068180106206	-39.1892247825427
364800000	-10.168889440224	-39.7610051475987
365000000	-10.3841261442196	-40.5002139425099
365200000	-10.574203720553	-41.4692840481083
365400000	-10.7974437979505	-41.8266336608484
365600000	-11.0159350199226	-42.1871636125205
365800000	-11.2389347362199	-43.2336931719899
366000000	-11.3887236752532	-43.8154371571409
366200000	-11.6807291324345	-44.503503353716
366400000	-11.892399062674	-44.7413758103268
366600000	-12.1516918712386	-45.7148336778227
366800000	-12.4235530964593	-46.3962523929403
367000000	-12.7127695381601	-47.0880829435666
367200000	-13.0660432714544	-47.3511463324296
367400000	-13.4505393848897	-47.6774956891444
367600000	-13.8800629292708	-49.1211039466368
367800000	-14.2892806973389	-50.079475985873
368000000	-14.78616570882	-50.0493248604801
368200000	-15.3849767571184	-50.834595090124
368400000	-15.9419403004828	-51.6518663998601
368600000	-16.4844765690336	-52.071967376649
368800000	-17.1654164892578	-51.8883181977277
369000000	-17.8430121607291	-52.3675062958649
369200000	-18.6481703165844	-51.1102187461344
369400000	-19.5251200751829	-51.2496499204144
369600000	-20.4941566609538	-49.8229378923229
369800000	-21.4091679644034	-48.7106450066602
370000000	-22.6011202419235	-46.339490782571
370200000	-23.9477359530461	-43.2623464557237
370400000	-25.4077029491596	-36.5519535013541
370600000	-27.2419268918818	-24.8046004962106
370800000	-28.7828593035499	-10.2437177414325
371000000	-28.8157992690264	7.0200908505581
371200000	-28.2393877959411	26.6456322840721
371400000	-26.5941929858391	39.786369107028
371600000	-24.8643474733727	51.0744585452372
371800000	-23.5479628791122	54.6763351232306
372000000	-22.007502576442	58.6358398604444
372200000	-20.7497938634298	62.267425080806
372400000	-19.676691328916	63.5720655926615
372600000	-18.7481583038666	64.6837970667118
372800000	-17.9774362240206	65.5368881535114
373000000	-17.1365679628057	66.2526877863101
373200000	-16.3706887843415	66.2410882035848
373400000	-15.7135274310272	65.9732882464942
373600000	-15.1218885499186	65.0617529935422
373800000	-14.739299954113	64.7502031854539
374000000	-14.1103110600922	63.5451387773756
374200000	-13.5670435552992	62.849554793007
374400000	-13.1244123424276	61.9829374169377
374600000	-12.7715235549321	60.8031622049007
374800000	-12.2758284019412	59.7243207294203
375000000	-11.9504609491588	58.6480504381443
375200000	-11.628618976785	57.4513853850049
375400000	-11.2708933041845	56.3011925541954
375600000	-10.9942869352963	54.9614613179043
375800000	-10.717398581254	53.8889137622846
376000000	-10.4294638302398	52.6292777024645
376200000	-10.1598196788349	51.7690129623319
376400000	-9.92029350699798	50.6439259177334
376600000	-9.70127021519252	49.3795624060382
376800000	-9.47619829261986	48.1873042131189
377000000	-9.26022427844339	47.2191694038535
377200000	-9.04735441878332	46.1619530554355
377400000	-8.85256496975625	45.3225188581468
377600000	-8.72123284958804	44.2512940825135
377800000	-8.56257444099163	43.2608926233094
378000000	-8.39406246115127	42.3415188549061
378200000	-8.28715031350619	41.5422487726161
378400000	-8.16889465123676	40.3134087030243
378600000	-7.94654976903576	39.2925523568653
378800000	-7.87546292868461	37.940762469743
379000000	-7.74525608567029	37.0044797801067
379200000	-7.61178207988576	35.9052152656254
379400000	-7.49761867433041	35.0430100313363
379600000	-7.3673484097943	34.0675391137207
379800000	-7.2722889936151	32.987737791815
380000000	-7.12565544688736	32.0466393398668
380200000	-7.053187706575	30.9714716553472
380400000	-6.96007783954375	29.8110780837898
380600000	-6.89086558800877	28.6217158801105
380800000	-6.78165581660807	27.5815297457579
381000000	-6.70713885271046	26.5929200387315
381200000	-6.65089788131454	25.6525906016066
381400000	-6.58859475890436	24.6153681004557
381600000	-6.51782433872196	23.6700464353979
381800000	-6.4531282087517	22.7280095037261
382000000	-6.36901345579312	21.7678837984293
382200000	-6.32435626108012	20.5848152489532
382400000	-6.29748975573403	19.6643851649623
382600000	-6.27719892579933	18.7372978054421
382800000	-6.22634473103787	17.8966401073814
383000000	-6.21569461017729	16.8665564337643
383200000	-6.16999724794433	15.9398589933933
383400000	-6.16864949042547	14.9106386013183
383600000	-6.14138875078335	14.1146206164927
383800000	-6.1082770096292	13.3592421129629
384000000	-6.10094837388974	12.4382873591389
384200000	-6.0569193864759	11.3971963791482
384400000	-6.05178397584334	10.7560327002104
384600000	-6.02944823153426	9.94152501193332
384800000	-6.0282083076476	9.36246551923814
